,tempi,V_in,V_out
0,0.0,1.0,0.0
1,0.01001001001001001,1.0,0.00249937601799165
2,0.02002002002002002,1.0,0.004992504859699006
3,0.03003003003003003,1.0,0.0074794015537631075
4,0.04004004004004004,1.0,0.009960083396794791
5,0.050050050050050046,1.0,0.012434559841428989
6,0.06006006006006006,1.0,0.014902849044877193
7,0.07007007007007007,1.0,0.01736496823836203
8,0.08008008008008008,1.0,0.01982093465310612
9,0.09009009009009009,1.0,0.02227076552033209
10,0.10010010010010009,1.0,0.024714476237596733
11,0.11011011011011011,1.0,0.02715207914224678
12,0.12012012012012012,1.0,0.029583589437288275
13,0.13013013013013014,1.0,0.03200902243618191
14,0.14014014014014015,1.0,0.03442839345238837
15,0.15015015015015015,1.0,0.03684171778076199
16,0.16016016016016016,1.0,0.039249010269422284
17,0.17017017017017017,1.0,0.04165028587373357
18,0.18018018018018017,1.0,0.04404555969777265
19,0.19019019019019018,1.0,0.046434846845616363
20,0.20020020020020018,1.0,0.048818162421341516
21,0.21021021021021022,1.0,0.051195520517109294
22,0.22022022022022023,1.0,0.05356693792369374
23,0.23023023023023023,1.0,0.05593242786025564
24,0.24024024024024024,1.0,0.058292005348179465
25,0.2502502502502503,1.0,0.06064568537135453
26,0.2602602602602603,1.0,0.06299348286957014
27,0.2702702702702703,1.0,0.06533541239796313
28,0.2802802802802803,1.0,0.06767148852165966
29,0.2902902902902903,1.0,0.07000172591895085
30,0.3003003003003003,1.0,0.07232613921842673
31,0.3103103103103103,1.0,0.07464474299897646
32,0.3203203203203203,1.0,0.07695755178978814
33,0.3303303303303303,1.0,0.07926458007034895
34,0.34034034034034033,1.0,0.08156584227044505
35,0.35035035035035034,1.0,0.08386135277016166
36,0.36036036036036034,1.0,0.08615112589988297
37,0.37037037037037035,1.0,0.08843517594108562
38,0.38038038038038036,1.0,0.09071351730873185
39,0.39039039039039036,1.0,0.09298616438400034
40,0.40040040040040037,1.0,0.09525313138943783
41,0.41041041041041043,1.0,0.09751443250507477
42,0.42042042042042044,1.0,0.0997700818684251
43,0.43043043043043044,1.0,0.10202009357448646
44,0.44044044044044045,1.0,0.10426448167574007
45,0.45045045045045046,1.0,0.10650326018215076
46,0.46046046046046046,1.0,0.10873644306116699
47,0.47047047047047047,1.0,0.11096404423772081
48,0.4804804804804805,1.0,0.1131860775942279
49,0.4904904904904905,1.0,0.1154025571282151
50,0.5005005005005005,1.0,0.11761349686079746
51,0.5105105105105106,1.0,0.11981891063826172
52,0.5205205205205206,1.0,0.12201881227161318
53,0.5305305305305306,1.0,0.12421321553660915
54,0.5405405405405406,1.0,0.12640213417375892
55,0.5505505505505506,1.0,0.12858558188832386
56,0.5605605605605606,1.0,0.13076357235031727
57,0.5705705705705706,1.0,0.13293611919450452
58,0.5805805805805806,1.0,0.13510323602040294
59,0.5905905905905906,1.0,0.1372649363922819
60,0.6006006006006006,1.0,0.13942123385586613
61,0.6106106106106106,1.0,0.14157214193615533
62,0.6206206206206206,1.0,0.1437176741035656
63,0.6306306306306306,1.0,0.14585784379399885
64,0.6406406406406406,1.0,0.14799266440904535
65,0.6506506506506506,1.0,0.1501221493159835
66,0.6606606606606606,1.0,0.1522463118477799
67,0.6706706706706707,1.0,0.15436516530308936
68,0.6806806806806807,1.0,0.1564787229462549
69,0.6906906906906907,1.0,0.15858699800730774
70,0.7007007007007007,1.0,0.16069000368196734
71,0.7107107107107107,1.0,0.16278775306363297
72,0.7207207207207207,1.0,0.1648802595086959
73,0.7307307307307307,1.0,0.16696753599660946
74,0.7407407407407407,1.0,0.16904959560182367
75,0.7507507507507507,1.0,0.17112645136471638
76,0.7607607607607607,1.0,0.1731981162916787
77,0.7707707707707707,1.0,0.17526460335520042
78,0.7807807807807807,1.0,0.1773259254939552
79,0.7907907907907907,1.0,0.179382095612886
80,0.8008008008008007,1.0,0.18143312658329053
81,0.8108108108108109,1.0,0.18347903124290638
82,0.8208208208208209,1.0,0.1855198224020303
83,0.8308308308308309,1.0,0.1875555128528806
84,0.8408408408408409,1.0,0.18958611534519712
85,0.8508508508508509,1.0,0.19161164259671873
86,0.8608608608608609,1.0,0.19363210729419475
87,0.8708708708708709,1.0,0.19564752209360955
88,0.8808808808808809,1.0,0.19765789962040728
89,0.8908908908908909,1.0,0.19966325246971642
90,0.9009009009009009,1.0,0.2016635932058107
91,0.9109109109109109,1.0,0.20365893434724852
92,0.9209209209209209,1.0,0.20564928838519375
93,0.9309309309309309,1.0,0.20763466778419012
94,0.9409409409409409,1.0,0.2096150849776589
95,0.950950950950951,1.0,0.21159055236799443
96,0.960960960960961,1.0,0.21356108232665955
97,0.970970970970971,1.0,0.21552668719428109
98,0.980980980980981,1.0,0.2174873792807454
99,0.990990990990991,1.0,0.21944317086232598
100,1.001001001001001,-1.0,0.22089362934272513
101,1.011011011011011,-1.0,0.21784215972772553
102,1.021021021021021,-1.0,0.2147983168773801
103,1.031031031031031,-1.0,0.21176208173015335
104,1.0410410410410411,-1.0,0.20873343526826327
105,1.0510510510510511,-1.0,0.20571235852349717
106,1.0610610610610611,-1.0,0.20269883257608023
107,1.0710710710710711,-1.0,0.1996928385566139
108,1.0810810810810811,-1.0,0.19669435764329654
109,1.0910910910910911,-1.0,0.19370337105488591
110,1.1011011011011012,-1.0,0.19071986006009786
111,1.1111111111111112,-1.0,0.18774380597494458
112,1.1211211211211212,-1.0,0.18477519016135258
113,1.1311311311311312,-1.0,0.1818139940284392
114,1.1411411411411412,-1.0,0.17886019903206957
115,1.1511511511511512,-1.0,0.17591378667332827
116,1.1611611611611612,-1.0,0.1729747385005902
117,1.1711711711711712,-1.0,0.17004303610481286
118,1.1811811811811812,-1.0,0.16711866110844503
119,1.1911911911911912,-1.0,0.16420159519392952
120,1.2012012012012012,-1.0,0.16129182009205018
121,1.2112112112112112,-1.0,0.15838931757961358
122,1.2212212212212212,-1.0,0.1554940694793289
123,1.2312312312312312,-1.0,0.15260605765968743
124,1.2412412412412412,-1.0,0.14972526403484265
125,1.2512512512512513,-1.0,0.14685167056448964
126,1.2612612612612613,-1.0,0.1439852592537451
127,1.2712712712712713,-1.0,0.14112601215302698
128,1.2812812812812813,-1.0,0.13827391135793426
129,1.2912912912912913,-1.0,0.1354289390091267
130,1.3013013013013013,-1.0,0.13259107729220462
131,1.3113113113113113,-1.0,0.12976030843758862
132,1.3213213213213213,-1.0,0.12693661472039935
133,1.3313313313313313,-1.0,0.12411997846033732
134,1.3413413413413413,-1.0,0.12131038202156247
135,1.3513513513513513,-1.0,0.11850780781257415
136,1.3613613613613613,-1.0,0.11571223828609077
137,1.3713713713713713,-1.0,0.11292365593892956
138,1.3813813813813813,-1.0,0.11014204331188628
139,1.3913913913913913,-1.0,0.10736738298961507
140,1.4014014014014013,-1.0,0.10459965760050816
141,1.4114114114114114,-1.0,0.10183884981657557
142,1.4214214214214214,-1.0,0.09908494235332495
143,1.4314314314314314,-1.0,0.09633791796964129
144,1.4414414414414414,-1.0,0.0935977594676667
145,1.4514514514514514,-1.0,0.09086444969268014
146,1.4614614614614614,-1.0,0.08813797153297714
147,1.4714714714714714,-1.0,0.08541830791919651
148,1.4814814814814814,-1.0,0.08270544179996953
149,1.4914914914914914,-1.0,0.07999935617473358
150,1.5015015015015014,-1.0,0.07730003409769796
151,1.5115115115115114,-1.0,0.07460745866523151
152,1.5215215215215214,-1.0,0.07192161301573707
153,1.5315315315315314,-1.0,0.0692424803295259
154,1.5415415415415414,-1.0,0.06657004382869204
155,1.5515515515515514,-1.0,0.06390428677698667
156,1.5615615615615615,-1.0,0.06124519247969264
157,1.5715715715715715,-1.0,0.0585927442834987
158,1.5815815815815815,-1.0,0.05594692557637401
159,1.5915915915915915,-1.0,0.05330771978744256
160,1.6016016016016015,-1.0,0.05067511038685742
161,1.6116116116116117,-1.0,0.048049080885675235
162,1.6216216216216217,-1.0,0.04542961483573081
163,1.6316316316316317,-1.0,0.0428166958295111
164,1.6416416416416417,-1.0,0.04021030750002991
165,1.6516516516516517,-1.0,0.03761043352070222
166,1.6616616616616617,-1.0,0.03501705760521857
167,1.6716716716716717,-1.0,0.03243016350741944
168,1.6816816816816818,-1.0,0.029849735021169676
169,1.6916916916916918,-1.0,0.027275755980232907
170,1.7017017017017018,-1.0,0.024708210258145902
171,1.7117117117117118,-1.0,0.02214708176809297
172,1.7217217217217218,-1.0,0.019592354462780397
173,1.7317317317317318,-1.0,0.017044012334310805
174,1.7417417417417418,-1.0,0.014502039414057555
175,1.7517517517517518,-1.0,0.011966419772539167
176,1.7617617617617618,-1.0,0.0094371375192937
177,1.7717717717717718,-1.0,0.006914176802753155
178,1.7817817817817818,-1.0,0.004397521824009503
179,1.7917917917917918,-1.0,0.0018871568509583221
180,1.8018018018018018,-1.0,-0.0006169338261169371
181,1.8118118118118118,-1.0,-0.0031147658746363063
182,1.8218218218218218,-1.0,-0.005606354918574384
183,1.8318318318318318,-1.0,-0.008091716538220634
184,1.8418418418418419,-1.0,-0.010570866269939683
185,1.8518518518518519,-1.0,-0.013043819607373296
186,1.8618618618618619,-1.0,-0.015510592062355267
187,1.8718718718718719,-1.0,-0.017971199106438615
188,1.8818818818818819,-1.0,-0.02042565615216742
189,1.8918918918918919,-1.0,-0.02287397857696919
190,1.901901901901902,-1.0,-0.025316181723651927
191,1.911911911911912,-1.0,-0.027752280900901212
192,1.921921921921922,-1.0,-0.030182291383777295
193,1.931931931931932,-1.0,-0.03260622840348956
194,1.941941941941942,-1.0,-0.03502410710324203
195,1.951951951951952,-1.0,-0.03743594261296943
196,1.961961961961962,-1.0,-0.039841750046118576
197,1.971971971971972,-1.0,-0.04224154445724323
198,1.981981981981982,-1.0,-0.044635340900664074
199,1.991991991991992,-1.0,-0.04702315460843664
200,2.002002002002002,1.0,-0.04840422962256732
201,2.012012012012012,1.0,-0.045783875503175385
202,2.022022022022022,1.0,-0.043170070628352965
203,2.032032032032032,1.0,-0.040562798629093795
204,2.042042042042042,1.0,-0.03796204317720733
205,2.052052052052052,1.0,-0.0353677879853439
206,2.062062062062062,1.0,-0.03278001680695958
207,2.0720720720720722,1.0,-0.03019871343616952
208,2.0820820820820822,1.0,-0.02762386170764227
209,2.0920920920920922,1.0,-0.025055445496451924
210,2.1021021021021022,1.0,-0.02249344871772732
211,2.1121121121121122,1.0,-0.019937855326879403
212,2.1221221221221223,1.0,-0.017388649319416128
213,2.1321321321321323,1.0,-0.014845814730798296
214,2.1421421421421423,1.0,-0.01230933563632728
215,2.1521521521521523,1.0,-0.00977919615122812
216,2.1621621621621623,1.0,-0.007255380430647784
217,2.1721721721721723,1.0,-0.004737872669132243
218,2.1821821821821823,1.0,-0.002226657100713213
219,2.1921921921921923,1.0,0.000278282001191668
220,2.2022022022022023,1.0,0.0027769603238764432
221,2.2122122122122123,1.0,0.005269393515317246
222,2.2222222222222223,1.0,0.0077555971843930906
223,2.2322322322322323,1.0,0.010235586901011602
224,2.2422422422422423,1.0,0.012709378196171187
225,2.2522522522522523,1.0,0.015176986562060383
226,2.2622622622622623,1.0,0.017638427452143397
227,2.2722722722722724,1.0,0.020093716281214105
228,2.2822822822822824,1.0,0.02254286842556849
229,2.2922922922922924,1.0,0.02498589922308008
230,2.3023023023023024,1.0,0.027422823973293757
231,2.3123123123123124,1.0,0.0298536579375237
232,2.3223223223223224,1.0,0.03227841633891072
233,2.3323323323323324,1.0,0.034697114362540166
234,2.3423423423423424,1.0,0.03710976715555498
235,2.3523523523523524,1.0,0.039516389827254056
236,2.3623623623623624,1.0,0.04191699744917871
237,2.3723723723723724,1.0,0.044311605055067954
238,2.3823823823823824,1.0,0.046700227639611416
239,2.3923923923923924,1.0,0.049082880161011505
240,2.4024024024024024,1.0,0.05145957754050125
241,2.4124124124124124,1.0,0.053830334662026275
242,2.4224224224224224,1.0,0.0561951663723403
243,2.4324324324324325,1.0,0.058554087481100386
244,2.4424424424424425,1.0,0.06090711276096197
245,2.4524524524524525,1.0,0.06325425694767363
246,2.4624624624624625,1.0,0.06559553474017153
247,2.4724724724724725,1.0,0.0679309608006738
248,2.4824824824824825,1.0,0.07026054975477446
249,2.4924924924924925,1.0,0.07258431619153718
250,2.5025025025025025,1.0,0.0749022746635889
251,2.5125125125125125,1.0,0.07721443968721298
252,2.5225225225225225,1.0,0.07952082574244232
253,2.5325325325325325,1.0,0.08182144727315206
254,2.5425425425425425,1.0,0.08411631868715216
255,2.5525525525525525,1.0,0.08640545435627964
256,2.5625625625625625,1.0,0.08868886861649061
257,2.5725725725725725,1.0,0.09096657576795211
258,2.5825825825825826,1.0,0.09323859007513358
259,2.5925925925925926,1.0,0.09550492576689812
260,2.6026026026026026,1.0,0.09776559703659363
261,2.6126126126126126,1.0,0.10002061804214346
262,2.6226226226226226,1.0,0.10227000290613712
263,2.6326326326326326,1.0,0.1045137657159204
264,2.6426426426426426,1.0,0.10675192052368551
265,2.6526526526526526,1.0,0.10898448134656084
266,2.6626626626626626,1.0,0.11121146216670054
267,2.6726726726726726,1.0,0.11343287693137377
268,2.6826826826826826,1.0,0.11564873955305378
269,2.6926926926926926,1.0,0.11785906390950672
270,2.7027027027027026,1.0,0.12006386384388014
271,2.7127127127127126,1.0,0.12226315316479137
272,2.7227227227227226,1.0,0.1244569456464155
273,2.7327327327327327,1.0,0.12664525502857324
274,2.7427427427427427,1.0,0.12882809501681847
275,2.7527527527527527,1.0,0.1310054792825255
276,2.7627627627627627,1.0,0.13317742146289055
277,2.7727727727727727,1.0,0.13534393515777146
278,2.7827827827827827,1.0,0.13750503393312438
279,2.7927927927927927,1.0,0.13966073132187223
280,2.8028028028028027,1.0,0.14181104082268597
281,2.8128128128128127,1.0,0.14395597590001774
282,2.8228228228228227,1.0,0.14609554998413113
283,2.8328328328328327,1.0,0.1482297764711292
284,2.8428428428428427,1.0,0.1503586687229796
285,2.8528528528528527,1.0,0.15248224006753713
286,2.8628628628628627,1.0,0.15460050379968104
287,2.8728728728728727,1.0,0.15671347319126203
288,2.8828828828828827,1.0,0.1588211614766906
289,2.8928928928928928,1.0,0.1609235818555948
290,2.9029029029029028,1.0,0.16302074749510104
291,2.9129129129129128,1.0,0.16511267152999967
292,2.9229229229229228,1.0,0.16719936706291494
293,2.932932932932933,1.0,0.1692808471644794
294,2.942942942942943,1.0,0.17135712487351284
295,2.952952952952953,1.0,0.17342821319720556
296,2.962962962962963,1.0,0.17549412510931642
297,2.972972972972973,1.0,0.1775548735396813
298,2.982982982982983,1.0,0.17961047138493336
299,2.992992992992993,1.0,0.18166093152120455
300,3.003003003003003,-1.0,0.1822053249945155
301,3.013013013013013,-1.0,0.17925055191578196
302,3.023023023023023,-1.0,0.17630316391962578
303,3.033033033033033,-1.0,0.17336314254795374
304,3.043043043043043,-1.0,0.1704304693887083
305,3.053053053053053,-1.0,0.1675051260759329
306,3.063063063063063,-1.0,0.16458709428965634
307,3.073073073073073,-1.0,0.1616763557557513
308,3.083083083083083,-1.0,0.15877289224581534
309,3.093093093093093,-1.0,0.155876685576872
310,3.103103103103103,-1.0,0.15298771761126578
311,3.113113113113113,-1.0,0.15010597025675598
312,3.123123123123123,-1.0,0.14723142546627463
313,3.133133133133133,-1.0,0.14436406523779993
314,3.143143143143143,-1.0,0.1415038716143196
315,3.153153153153153,-1.0,0.1386508266840154
316,3.163163163163163,-1.0,0.13580491257965527
317,3.173173173173173,-1.0,0.13296611147862128
318,3.183183183183183,-1.0,0.13013440560282125
319,3.193193193193193,-1.0,0.12730977721857717
320,3.203203203203203,-1.0,0.124492208636638
321,3.2132132132132134,-1.0,0.12168168221195665
322,3.2232232232232234,-1.0,0.11887818034354701
323,3.2332332332332334,-1.0,0.11608168547440788
324,3.2432432432432434,-1.0,0.1132921800914112
325,3.2532532532532534,-1.0,0.11050964672521592
326,3.2632632632632634,-1.0,0.10773406795017539
327,3.2732732732732734,-1.0,0.1049654263841661
328,3.2832832832832834,-1.0,0.10220370468850305
329,3.2932932932932935,-1.0,0.09944888556782966
330,3.3033033033033035,-1.0,0.09670095177001975
331,3.3133133133133135,-1.0,0.09395988608609146
332,3.3233233233233235,-1.0,0.0912256713500803
333,3.3333333333333335,-1.0,0.08849829043890044
334,3.3433433433433435,-1.0,0.08577772627225777
335,3.3533533533533535,-1.0,0.08306396181255052
336,3.3633633633633635,-1.0,0.08035698006606526
337,3.3733733733733735,-1.0,0.0776567640813169
338,3.3833833833833835,-1.0,0.07496329694833552
339,3.3933933933933935,-1.0,0.07227656179940962
340,3.4034034034034035,-1.0,0.06959654180897802
341,3.4134134134134135,-1.0,0.06692322019352197
342,3.4234234234234235,-1.0,0.06425658021145762
343,3.4334334334334335,-1.0,0.061596605163028756
344,3.4434434434434436,-1.0,0.05894327839019968
345,3.4534534534534536,-1.0,0.056296583276548656
346,3.4634634634634636,-1.0,0.05365650324716133
347,3.4734734734734736,-1.0,0.05102302176852462
348,3.4834834834834836,-1.0,0.04839612234842086
349,3.4934934934934936,-1.0,0.045775788535822134
350,3.5035035035035036,-1.0,0.04316200392078499
351,3.5135135135135136,-1.0,0.04055475213434541
352,3.5235235235235236,-1.0,0.03795401684841404
353,3.5335335335335336,-1.0,0.03535978177567169
354,3.5435435435435436,-1.0,0.03277203066946516
355,3.5535535535535536,-1.0,0.030190747323703304
356,3.5635635635635636,-1.0,0.027615915572753412
357,3.5735735735735736,-1.0,0.025047519291337826
358,3.5835835835835836,-1.0,0.022485542394430888
359,3.5935935935935936,-1.0,0.01992996883715612
360,3.6036036036036037,-1.0,0.017380782614683746
361,3.6136136136136137,-1.0,0.014837967762128396
362,3.6236236236236237,-1.0,0.01230150835444721
363,3.6336336336336337,-1.0,0.00977138850633813
364,3.6436436436436437,-1.0,0.0072475923721385185
365,3.6536536536536537,-1.0,0.00473010414572405
366,3.6636636636636637,-1.0,0.002218908060407851
367,3.6736736736736737,-1.0,-0.00028601161116001764
368,3.6836836836836837,-1.0,-0.0027846705570928436
369,3.6936936936936937,-1.0,-0.005277084426367271
370,3.7037037037037037,-1.0,-0.0077632688289229895
371,3.7137137137137137,-1.0,-0.010243239335762173
372,3.7237237237237237,-1.0,-0.012717011479048631
373,3.7337337337337337,-1.0,-0.01518460075220667
374,3.7437437437437437,-1.0,-0.017646022609731256
375,3.7537537537537538,-1.0,-0.02010129246374841
376,3.7637637637637638,-1.0,-0.02255042568883921
377,3.7737737737737738,-1.0,-0.02499343762162331
378,3.7837837837837838,-1.0,-0.02743034355992292
379,3.793793793793794,-1.0,-0.029861158762802733
380,3.803803803803804,-1.0,-0.032285898450606955
381,3.813813813813814,-1.0,-0.03470457780499348
382,3.823823823823824,-1.0,-0.03711721196896529
383,3.833833833833834,-1.0,-0.03952381604689883
384,3.843843843843844,-1.0,-0.04192440510780258
385,3.853853853853854,-1.0,-0.0443189941926467
386,3.863863863863864,-1.0,-0.04670759829821159
387,3.873873873873874,-1.0,-0.04909023238351162
388,3.883883883883884,-1.0,-0.051466911370718293
389,3.893893893893894,-1.0,-0.05383765014534454
390,3.903903903903904,-1.0,-0.05620246355643375
391,3.913913913913914,-1.0,-0.05856136641675365
392,3.923923923923924,-1.0,-0.060914373502995015
393,3.933933933933934,-1.0,-0.06326149955597515
394,3.943943943943944,-1.0,-0.06560275927470427
395,3.953953953953954,-1.0,-0.06793816731049612
396,3.963963963963964,-1.0,-0.07026773828408771
397,3.973973973973974,-1.0,-0.07259148678886342
398,3.983983983983984,-1.0,-0.07490942737830703
399,3.993993993993994,-1.0,-0.07722157459356292
400,4.004004004004004,1.0,-0.07752691940730476
401,4.014014014014014,1.0,-0.07483377679852062
402,4.024024024024024,1.0,-0.07214736535993158
403,4.034034034034034,1.0,-0.0694676682677785
404,4.044044044044044,1.0,-0.06679466874048684
405,4.054054054054054,1.0,-0.06412835003830643
406,4.064064064064064,1.0,-0.061468695463221076
407,4.074074074074074,1.0,-0.058815688359351435
408,4.084084084084084,1.0,-0.05616931211207902
409,4.094094094094094,1.0,-0.05352955014827165
410,4.104104104104104,1.0,-0.05089638593665082
411,4.114114114114114,1.0,-0.04826980298676303
412,4.124124124124124,1.0,-0.04564978484952117
413,4.134134134134134,1.0,-0.043036315117351856
414,4.1441441441441444,1.0,-0.040429377422867535
415,4.1541541541541545,1.0,-0.03782895544028649
416,4.1641641641641645,1.0,-0.03523503288177598
417,4.1741741741741745,1.0,-0.032647593490707914
418,4.1841841841841845,1.0,-0.03006662106098562
419,4.1941941941941945,1.0,-0.027492099428510317
420,4.2042042042042045,1.0,-0.024924012469880658
421,4.2142142142142145,1.0,-0.022362344102286442
